
T0EFC 000:043 SEGGER J-Link V4.68a Log File (0000ms, 0042ms total)
T0EFC 000:043 DLL Compiled: Apr 12 2013 13:26:50 (0000ms, 0042ms total)
T0EFC 000:043 Logging started @ 2016-04-18 19:07 (0000ms, 0042ms total)
T0EFC 000:043 JLINK_SetWarnOutHandler(...) (0000ms, 0042ms total)
T0EFC 000:043 JLINK_OpenEx(...)
Firmware: J-Link ARM V8 compiled Nov 14 2012 22:34:52
Hardware: V8.00
S/N: 304423265
Feature(s): RDI,FlashDL,FlashBP,JFlash,GDBFULL  returns O.K. (0013ms, 0055ms total)
T0EFC 000:056 JLINK_SetErrorOutHandler(...) (0000ms, 0055ms total)
T0EFC 000:056 JLINK_ExecCommand("ProjectFile = "C:\Documents and Settings\Administrator\桌面\SX1278版433程序（20160417）UART2通信接口_OK\Project\RVMDK（uv4）\JLinkSettings.ini"", ...)  returns 0x00 (0001ms, 0056ms total)
T0EFC 000:061 JLINK_ExecCommand("Device = STM32F103RC", ...)
                JLINK_AddMirrorAreaEx(Addr = 0x00000000, Size = 0x00000000) (0000ms, 0000ms total)
              Device "STM32F103RC" selected (256 KB flash, 48 KB RAM).  returns 0x00 (0005ms, 0061ms total)
T0EFC 000:066 JLINK_ExecCommand("DisableConnectionTimeout", ...)  returns 0x00 (0000ms, 0061ms total)
T0EFC 000:066 JLINK_GetHardwareVersion()  returns 0x13880 (0000ms, 0061ms total)
T0EFC 000:066 JLINK_GetDLLVersion()  returns 46801 (0000ms, 0061ms total)
T0EFC 000:066 JLINK_GetFirmwareString(...) (0000ms, 0061ms total)
T0EFC 000:077 JLINK_GetDLLVersion()  returns 46801 (0000ms, 0061ms total)
T0EFC 000:077 JLINK_GetCompileDateTime() (0000ms, 0061ms total)
T0EFC 000:080 JLINK_GetFirmwareString(...) (0000ms, 0061ms total)
T0EFC 000:081 JLINK_GetHardwareVersion()  returns 0x13880 (0000ms, 0061ms total)
T0EFC 000:086 JLINK_TIF_Select(JLINKARM_TIF_SWD)  returns 0x00 (0002ms, 0063ms total)
T0EFC 000:088 JLINK_SetSpeed(10000) (0001ms, 0064ms total)
T0EFC 000:089 JLINK_GetId() >0x108 TIF>Found SWD-DP with ID 0x1BA01477 >0x0D TIF> >0x28 TIF> >0x0D TIF> >0x28 TIF> >0x0D TIF> >0x21 TIF> >0x0D TIF> >0x28 TIF> >0x0D TIF> >0x28 TIF> >0x0D TIF> >0x28 TIF> >0x0D TIF> >0x21 TIF> >0x0D TIF> >0x21 TIF> >0x0D TIF> >0x28 TIF> >0x0D TIF> >0x21 TIF> >0x0D TIF> >0x21 TIF> >0x0D TIF> >0x28 TIF> >0x0D TIF> >0x28 TIF> >0x108 TIF>Found SWD-DP with ID 0x1BA01477 >0x0D TIF> >0x21 TIF> >0x0D TIF> >0x28 TIF> >0x0D TIF> >0x28 TIF> >0x0D TIF> >0x21 TIF> >0x0D TIF> >0x21 TIF>
 >0x0D TIF> >0x28 TIF> >0x0D TIF> >0x21 TIF> >0x0D TIF> >0x21 TIF> >0x0D TIF> >0x21 TIF> >0x0D TIF> >0x21 TIF> >0x0D TIF> >0x21 TIF> >0x0D TIF> >0x28 TIF> >0x0D TIF> >0x28 TIF> >0x0D TIF> >0x21 TIF> >0x0D TIF> >0x21 TIF> >0x0D TIF> >0x28 TIF> >0x0D TIF> >0x21 TIF> >0x0D TIF> >0x21 TIF> >0x0D TIF> >0x28 TIF> >0x0D TIF> >0x28 TIF> >0x0D TIF> >0x28 TIF> >0x0D TIF> >0x21 TIF> >0x0D TIF> >0x21 TIF> >0x0D TIF> >0x28 TIF> >0x0D TIF> >0x28 TIF> >0x0D TIF> >0x28 TIF> >0x0D TIF> >0x28 TIF> >0x0D TIF> >0x28 TIF>
 >0x0D TIF> >0x21 TIF> >0x0D TIF> >0x21 TIF> >0x0D TIF> >0x21 TIF>TPIU fitted.ETM fitted. >0x0D TIF> >0x28 TIF> >0x0D TIF> >0x21 TIF> >0x0D TIF> >0x21 TIF> >0x0D TIF> >0x28 TIF> >0x0D TIF> >0x21 TIF> >0x0D TIF> >0x21 TIF>FPUnit: 6 code (BP) slots and 2 literal slots >0x0D TIF> >0x28 TIF> >0x0D TIF> >0x21 TIF> >0x0D TIF> >0x21 TIF> >0x0D TIF> >0x28 TIF> >0x0D TIF> >0x28 TIF> >0x0D TIF> >0x28 TIF> >0x0D TIF> >0x21 TIF> >0x0D TIF> >0x21 TIF> >0x0D TIF> >0x28 TIF> >0x0D TIF> >0x21 TIF> >0x0D TIF> >0x21 TIF>
 >0x0D TIF> >0x28 TIF> >0x0D TIF> >0x21 TIF> >0x0D TIF> >0x21 TIF>Found Cortex-M3 r1p1, Little endian. >0x0D TIF> >0x21 TIF>  returns 0x1BA01477 (0075ms, 0139ms total)
T0EFC 000:164 JLINK_GetDeviceFamily()  returns 3 (0000ms, 0139ms total)
T0EFC 000:165 JLINK_ReadMem (0xE00FFFF0, 0x0010 Bytes, ...) -- CPU is running -- CPU_ReadMem(16 bytes @ 0xE00FFFF0) -- Data:  0D 00 00 00 10 00 00 00 05 00 00 00 B1 00 00 00  returns 0x00 (0001ms, 0140ms total)
T0EFC 000:166 JLINK_ReadMem (0xE00FFFD0, 0x0020 Bytes, ...) -- CPU is running -- CPU_ReadMem(32 bytes @ 0xE00FFFD0) -- Data:  00 00 00 00 00 00 00 00 00 00 00 00 00 00 00 00 ...  returns 0x00 (0001ms, 0141ms total)
T0EFC 000:167 JLINK_ReadMem (0xE00FF000, 0x0018 Bytes, ...) -- CPU is running -- CPU_ReadMem(24 bytes @ 0xE00FF000) -- Data:  03 F0 F0 FF 03 20 F0 FF 03 30 F0 FF 03 10 F0 FF ...  returns 0x00 (0001ms, 0142ms total)
T0EFC 000:168 JLINK_ReadMemU32(0xE000ED00, 0x0001 Items, ...) -- CPU is running -- CPU_ReadMem(4 bytes @ 0xE000ED00) -- Data:  31 C2 1F 41  returns 0x01 (0001ms, 0143ms total)
T0EFC 000:169 JLINK_SetResetType(JLINKARM_RESET_TYPE_NORMAL)  returns JLINKARM_RESET_TYPE_NORMAL (0000ms, 0143ms total)
T0EFC 000:169 JLINK_Reset() -- CPU is running -- CPU_WriteMem(4 bytes @ 0xE000EDF0) -- CPU is running -- CPU_WriteMem(4 bytes @ 0xE000EDFC) >0x35 TIF> -- CPU is running -- CPU_WriteMem(4 bytes @ 0xE000ED0C) -- CPU is running -- CPU_ReadMem(4 bytes @ 0xE000EDF0) -- CPU is running -- CPU_ReadMem(4 bytes @ 0xE000EDF0) -- CPU is running -- CPU_WriteMem(4 bytes @ 0xE000EDF0) -- CPU is running -- CPU_WriteMem(4 bytes @ 0xE000EDFC) -- CPU is running -- CPU_ReadMem(4 bytes @ 0xE000EDF0)
 -- CPU_WriteMem(4 bytes @ 0xE0002000) (0021ms, 0164ms total)
T0EFC 000:190 JLINK_Halt()  returns 0x00 (0000ms, 0164ms total)
T0EFC 000:190 JLINK_IsHalted()  returns TRUE (0000ms, 0164ms total)
T0EFC 000:190 JLINK_ReadMemU32(0xE000EDF0, 0x0001 Items, ...) -- CPU_ReadMem(4 bytes @ 0xE000EDF0) -- Data:  03 00 03 00  returns 0x01 (0001ms, 0165ms total)
T0EFC 000:191 JLINK_WriteU32(0xE000EDF0, 0xA05F0003) -- CPU_WriteMem(4 bytes @ 0xE000EDF0)  returns 0x00 (0001ms, 0166ms total)
T0EFC 000:192 JLINK_WriteU32(0xE000EDFC, 0x01000000) -- CPU_WriteMem(4 bytes @ 0xE000EDFC)  returns 0x00 (0000ms, 0166ms total)
T0EFC 000:197 JLINK_GetHWStatus(...)  returns 0x00 (0001ms, 0167ms total)
T0EFC 000:199 JLINK_GetNumBPUnits(Type = 0xFFFFFF00)  returns 0x06 (0000ms, 0167ms total)
T0EFC 000:199 JLINK_GetNumBPUnits(Type = 0xF0)  returns 0x2000 (0000ms, 0167ms total)
T0EFC 000:199 JLINK_GetNumWPUnits()  returns 0x04 (0000ms, 0167ms total)
T0EFC 000:202 JLINK_GetSpeed()  returns 0xFA0 (0000ms, 0167ms total)
T0EFC 000:204 JLINK_ReadMemU32(0xE000E004, 0x0001 Items, ...) -- CPU_ReadMem(4 bytes @ 0xE000E004) -- Data:  01 00 00 00  returns 0x01 (0001ms, 0168ms total)
T0EFC 000:205 JLINK_ReadMemU32(0xE000E004, 0x0001 Items, ...) -- CPU_ReadMem(4 bytes @ 0xE000E004) -- Data:  01 00 00 00  returns 0x01 (0001ms, 0169ms total)
T0EFC 000:206 JLINK_WriteMem(0xE0001000, 0x001C Bytes, ...) -- Data:  01 00 00 00 00 00 00 00 00 00 00 00 00 00 00 00 ... -- CPU_WriteMem(28 bytes @ 0xE0001000)  returns 0x1C (0001ms, 0170ms total)
T0EFC 000:207 JLINK_ReadMem (0xE0001000, 0x001C Bytes, ...) -- CPU_ReadMem(28 bytes @ 0xE0001000) -- Data:  01 00 00 40 00 00 00 00 00 00 00 00 00 00 00 00 ...  returns 0x00 (0001ms, 0171ms total)
T0EFC 000:208 JLINK_Halt()  returns 0x00 (0000ms, 0171ms total)
T0EFC 000:208 JLINK_IsHalted()  returns TRUE (0000ms, 0171ms total)
T0EFC 000:210 JLINK_WriteMem(0x20000000, 0x0164 Bytes, ...) -- Data:  00 BE 0A E0 0D 78 2D 06 68 40 08 24 40 00 00 D3 ... -- CPU_WriteMem(356 bytes @ 0x20000000)  returns 0x164 (0003ms, 0174ms total)
T0EFC 000:213 JLINK_WriteReg(R0, 0x08000000)  returns 0x00 (0000ms, 0174ms total)
T0EFC 000:213 JLINK_WriteReg(R1, 0x007A1200)  returns 0x00 (0000ms, 0174ms total)
T0EFC 000:213 JLINK_WriteReg(R2, 0x00000001)  returns 0x00 (0000ms, 0174ms total)
T0EFC 000:213 JLINK_WriteReg(R3, 0x00000000)  returns 0x00 (0000ms, 0174ms total)
T0EFC 000:213 JLINK_WriteReg(R4, 0x00000000)  returns 0x00 (0000ms, 0174ms total)
T0EFC 000:213 JLINK_WriteReg(R5, 0x00000000)  returns 0x00 (0000ms, 0174ms total)
T0EFC 000:213 JLINK_WriteReg(R6, 0x00000000)  returns 0x00 (0000ms, 0174ms total)
T0EFC 000:213 JLINK_WriteReg(R7, 0x00000000)  returns 0x00 (0000ms, 0174ms total)
T0EFC 000:213 JLINK_WriteReg(R8, 0x00000000)  returns 0x00 (0000ms, 0174ms total)
T0EFC 000:213 JLINK_WriteReg(R9, 0x20000160)  returns 0x00 (0000ms, 0174ms total)
T0EFC 000:213 JLINK_WriteReg(R10, 0x00000000)  returns 0x00 (0000ms, 0174ms total)
T0EFC 000:213 JLINK_WriteReg(R11, 0x00000000)  returns 0x00 (0000ms, 0174ms total)
T0EFC 000:213 JLINK_WriteReg(R12, 0x00000000)  returns 0x00 (0000ms, 0174ms total)
T0EFC 000:213 JLINK_WriteReg(R13, 0x20000800)  returns 0x00 (0000ms, 0174ms total)
T0EFC 000:213 JLINK_WriteReg(R14, 0x20000001)  returns 0x00 (0000ms, 0174ms total)
T0EFC 000:213 JLINK_WriteReg(R15, 0x20000038)  returns 0x00 (0000ms, 0174ms total)
T0EFC 000:213 JLINK_WriteReg(XPSR, 0x01000000)  returns 0x00 (0000ms, 0174ms total)
T0EFC 000:213 JLINK_WriteReg(MSP, 0x20000800)  returns 0x00 (0000ms, 0174ms total)
T0EFC 000:213 JLINK_WriteReg(PSP, 0x20000800)  returns 0x00 (0000ms, 0174ms total)
T0EFC 000:213 JLINK_WriteReg(CFBP, 0x00000000)  returns 0x00 (0000ms, 0174ms total)
T0EFC 000:213 JLINK_SetBPEx(Addr = 0x20000000, Type = 0xFFFFFFF2) -- CPU_ReadMem(2 bytes @ 0x20000000)  returns 0x00000001 (0001ms, 0175ms total)
T0EFC 000:214 JLINK_Go() -- CPU_WriteMem(2 bytes @ 0x20000000) -- CPU_WriteMem(4 bytes @ 0xE0002008) -- CPU_WriteMem(4 bytes @ 0xE000200C) -- CPU_WriteMem(4 bytes @ 0xE0002010) -- CPU_WriteMem(4 bytes @ 0xE0002014) -- CPU_WriteMem(4 bytes @ 0xE0002018) -- CPU_WriteMem(4 bytes @ 0xE000201C) (0008ms, 0183ms total)
T0EFC 000:222 JLINK_IsHalted() -- CPU_ReadMem(2 bytes @ 0x20000000)  returns TRUE (0004ms, 0187ms total)
T0EFC 000:226 JLINK_ReadReg(R15)  returns 0x20000000 (0000ms, 0183ms total)
T0EFC 000:226 JLINK_ClrBPEx(BPHandle = 0x00000001)  returns 0x00 (0000ms, 0183ms total)
T0EFC 000:226 JLINK_ReadReg(R0)  returns 0x00000000 (0000ms, 0183ms total)
T0EFC 000:226 JLINK_WriteReg(R0, 0x08000000)  returns 0x00 (0000ms, 0183ms total)
T0EFC 000:226 JLINK_WriteReg(R1, 0x007A1200)  returns 0x00 (0000ms, 0183ms total)
T0EFC 000:226 JLINK_WriteReg(R2, 0x00000001)  returns 0x00 (0000ms, 0183ms total)
T0EFC 000:226 JLINK_WriteReg(R3, 0x00000000)  returns 0x00 (0000ms, 0183ms total)
T0EFC 000:226 JLINK_WriteReg(R4, 0x00000000)  returns 0x00 (0000ms, 0183ms total)
T0EFC 000:226 JLINK_WriteReg(R5, 0x00000000)  returns 0x00 (0000ms, 0183ms total)
T0EFC 000:226 JLINK_WriteReg(R6, 0x00000000)  returns 0x00 (0000ms, 0183ms total)
T0EFC 000:226 JLINK_WriteReg(R7, 0x00000000)  returns 0x00 (0000ms, 0183ms total)
T0EFC 000:226 JLINK_WriteReg(R8, 0x00000000)  returns 0x00 (0000ms, 0183ms total)
T0EFC 000:226 JLINK_WriteReg(R9, 0x20000160)  returns 0x00 (0000ms, 0183ms total)
T0EFC 000:226 JLINK_WriteReg(R10, 0x00000000)  returns 0x00 (0000ms, 0183ms total)
T0EFC 000:226 JLINK_WriteReg(R11, 0x00000000)  returns 0x00 (0000ms, 0183ms total)
T0EFC 000:226 JLINK_WriteReg(R12, 0x00000000)  returns 0x00 (0000ms, 0183ms total)
T0EFC 000:226 JLINK_WriteReg(R13, 0x20000800)  returns 0x00 (0000ms, 0183ms total)
T0EFC 000:226 JLINK_WriteReg(R14, 0x20000001)  returns 0x00 (0000ms, 0183ms total)
T0EFC 000:226 JLINK_WriteReg(R15, 0x2000007C)  returns 0x00 (0000ms, 0183ms total)
T0EFC 000:226 JLINK_WriteReg(XPSR, 0x01000000)  returns 0x00 (0000ms, 0183ms total)
T0EFC 000:226 JLINK_WriteReg(MSP, 0x20000800)  returns 0x00 (0000ms, 0183ms total)
T0EFC 000:226 JLINK_WriteReg(PSP, 0x20000800)  returns 0x00 (0000ms, 0183ms total)
T0EFC 000:226 JLINK_WriteReg(CFBP, 0x00000000)  returns 0x00 (0000ms, 0183ms total)
T0EFC 000:226 JLINK_SetBPEx(Addr = 0x20000000, Type = 0xFFFFFFF2)  returns 0x00000002 (0000ms, 0183ms total)
T0EFC 000:226 JLINK_Go() (0002ms, 0185ms total)
T0EFC 000:228 JLINK_IsHalted()  returns FALSE (0001ms, 0186ms total)
T0EFC 000:242 JLINK_IsHalted()  returns FALSE (0000ms, 0185ms total)
T0EFC 000:244 JLINK_IsHalted()  returns FALSE (0000ms, 0185ms total)
T0EFC 000:246 JLINK_IsHalted()  returns FALSE (0000ms, 0185ms total)
T0EFC 000:248 JLINK_IsHalted()  returns FALSE (0000ms, 0185ms total)
T0EFC 000:250 JLINK_IsHalted() -- CPU_ReadMem(2 bytes @ 0x20000000)  returns TRUE (0003ms, 0188ms total)
T0EFC 000:253 JLINK_ReadReg(R15)  returns 0x20000000 (0000ms, 0185ms total)
T0EFC 000:253 JLINK_ClrBPEx(BPHandle = 0x00000002)  returns 0x00 (0000ms, 0185ms total)
T0EFC 000:253 JLINK_ReadReg(R0)  returns 0x00000000 (0000ms, 0185ms total)
T0EFC 000:305 JLINK_WriteReg(R0, 0x00000001)  returns 0x00 (0000ms, 0185ms total)
T0EFC 000:305 JLINK_WriteReg(R1, 0x007A1200)  returns 0x00 (0000ms, 0185ms total)
T0EFC 000:305 JLINK_WriteReg(R2, 0x00000001)  returns 0x00 (0000ms, 0185ms total)
T0EFC 000:305 JLINK_WriteReg(R3, 0x00000000)  returns 0x00 (0000ms, 0185ms total)
T0EFC 000:305 JLINK_WriteReg(R4, 0x00000000)  returns 0x00 (0000ms, 0185ms total)
T0EFC 000:305 JLINK_WriteReg(R5, 0x00000000)  returns 0x00 (0000ms, 0185ms total)
T0EFC 000:305 JLINK_WriteReg(R6, 0x00000000)  returns 0x00 (0000ms, 0185ms total)
T0EFC 000:305 JLINK_WriteReg(R7, 0x00000000)  returns 0x00 (0000ms, 0185ms total)
T0EFC 000:305 JLINK_WriteReg(R8, 0x00000000)  returns 0x00 (0000ms, 0185ms total)
T0EFC 000:305 JLINK_WriteReg(R9, 0x20000160)  returns 0x00 (0000ms, 0185ms total)
T0EFC 000:305 JLINK_WriteReg(R10, 0x00000000)  returns 0x00 (0000ms, 0185ms total)
T0EFC 000:305 JLINK_WriteReg(R11, 0x00000000)  returns 0x00 (0000ms, 0185ms total)
T0EFC 000:305 JLINK_WriteReg(R12, 0x00000000)  returns 0x00 (0000ms, 0185ms total)
T0EFC 000:305 JLINK_WriteReg(R13, 0x20000800)  returns 0x00 (0000ms, 0185ms total)
T0EFC 000:305 JLINK_WriteReg(R14, 0x20000001)  returns 0x00 (0000ms, 0185ms total)
T0EFC 000:305 JLINK_WriteReg(R15, 0x2000006A)  returns 0x00 (0000ms, 0185ms total)
T0EFC 000:305 JLINK_WriteReg(XPSR, 0x01000000)  returns 0x00 (0000ms, 0185ms total)
T0EFC 000:305 JLINK_WriteReg(MSP, 0x20000800)  returns 0x00 (0000ms, 0185ms total)
T0EFC 000:305 JLINK_WriteReg(PSP, 0x20000800)  returns 0x00 (0001ms, 0186ms total)
T0EFC 000:306 JLINK_WriteReg(CFBP, 0x00000000)  returns 0x00 (0000ms, 0186ms total)
T0EFC 000:306 JLINK_SetBPEx(Addr = 0x20000000, Type = 0xFFFFFFF2)  returns 0x00000003 (0000ms, 0186ms total)
T0EFC 000:306 JLINK_Go() (0001ms, 0187ms total)
T0EFC 000:307 JLINK_IsHalted() -- CPU_ReadMem(2 bytes @ 0x20000000)  returns TRUE (0004ms, 0191ms total)
T0EFC 000:311 JLINK_ReadReg(R15)  returns 0x20000000 (0000ms, 0187ms total)
T0EFC 000:311 JLINK_ClrBPEx(BPHandle = 0x00000003)  returns 0x00 (0000ms, 0187ms total)
T0EFC 000:311 JLINK_ReadReg(R0)  returns 0x00000000 (0000ms, 0187ms total)
T0EFC 000:315 JLINK_WriteMem(0x20000000, 0x0164 Bytes, ...) -- Data:  00 BE 0A E0 0D 78 2D 06 68 40 08 24 40 00 00 D3 ... -- CPU_WriteMem(356 bytes @ 0x20000000)  returns 0x164 (0003ms, 0190ms total)
T0EFC 000:318 JLINK_WriteReg(R0, 0x08000000)  returns 0x00 (0000ms, 0190ms total)
T0EFC 000:318 JLINK_WriteReg(R1, 0x007A1200)  returns 0x00 (0000ms, 0190ms total)
T0EFC 000:318 JLINK_WriteReg(R2, 0x00000002)  returns 0x00 (0000ms, 0190ms total)
T0EFC 000:318 JLINK_WriteReg(R3, 0x00000000)  returns 0x00 (0000ms, 0190ms total)
T0EFC 000:318 JLINK_WriteReg(R4, 0x00000000)  returns 0x00 (0000ms, 0190ms total)
T0EFC 000:318 JLINK_WriteReg(R5, 0x00000000)  returns 0x00 (0000ms, 0190ms total)
T0EFC 000:318 JLINK_WriteReg(R6, 0x00000000)  returns 0x00 (0000ms, 0190ms total)
T0EFC 000:318 JLINK_WriteReg(R7, 0x00000000)  returns 0x00 (0000ms, 0190ms total)
T0EFC 000:318 JLINK_WriteReg(R8, 0x00000000)  returns 0x00 (0000ms, 0190ms total)
T0EFC 000:318 JLINK_WriteReg(R9, 0x20000160)  returns 0x00 (0000ms, 0190ms total)
T0EFC 000:318 JLINK_WriteReg(R10, 0x00000000)  returns 0x00 (0000ms, 0190ms total)
T0EFC 000:318 JLINK_WriteReg(R11, 0x00000000)  returns 0x00 (0000ms, 0190ms total)
T0EFC 000:318 JLINK_WriteReg(R12, 0x00000000)  returns 0x00 (0000ms, 0190ms total)
T0EFC 000:318 JLINK_WriteReg(R13, 0x20000800)  returns 0x00 (0000ms, 0190ms total)
T0EFC 000:318 JLINK_WriteReg(R14, 0x20000001)  returns 0x00 (0000ms, 0190ms total)
T0EFC 000:318 JLINK_WriteReg(R15, 0x20000038)  returns 0x00 (0000ms, 0190ms total)
T0EFC 000:318 JLINK_WriteReg(XPSR, 0x01000000)  returns 0x00 (0000ms, 0190ms total)
T0EFC 000:318 JLINK_WriteReg(MSP, 0x20000800)  returns 0x00 (0000ms, 0190ms total)
T0EFC 000:318 JLINK_WriteReg(PSP, 0x20000800)  returns 0x00 (0000ms, 0190ms total)
T0EFC 000:318 JLINK_WriteReg(CFBP, 0x00000000)  returns 0x00 (0000ms, 0190ms total)
T0EFC 000:318 JLINK_SetBPEx(Addr = 0x20000000, Type = 0xFFFFFFF2) -- CPU_ReadMem(2 bytes @ 0x20000000)  returns 0x00000004 (0001ms, 0191ms total)
T0EFC 000:319 JLINK_Go() -- CPU_WriteMem(2 bytes @ 0x20000000) (0003ms, 0194ms total)
T0EFC 000:322 JLINK_IsHalted() -- CPU_ReadMem(2 bytes @ 0x20000000)  returns TRUE (0002ms, 0196ms total)
T0EFC 000:324 JLINK_ReadReg(R15)  returns 0x20000000 (0000ms, 0194ms total)
T0EFC 000:324 JLINK_ClrBPEx(BPHandle = 0x00000004)  returns 0x00 (0000ms, 0194ms total)
T0EFC 000:324 JLINK_ReadReg(R0)  returns 0x00000000 (0000ms, 0194ms total)
T0EFC 000:324 JLINK_WriteMem(0x20000164, 0x0400 Bytes, ...) -- Data:  28 11 00 20 45 01 00 08 35 2F 00 08 25 2B 00 08 ... -- CPU_WriteMem(1024 bytes @ 0x20000164)  returns 0x400 (0007ms, 0201ms total)
T0EFC 000:331 JLINK_WriteReg(R0, 0x08000000)  returns 0x00 (0000ms, 0201ms total)
T0EFC 000:331 JLINK_WriteReg(R1, 0x00000400)  returns 0x00 (0000ms, 0201ms total)
T0EFC 000:331 JLINK_WriteReg(R2, 0x20000164)  returns 0x00 (0000ms, 0201ms total)
T0EFC 000:331 JLINK_WriteReg(R3, 0x00000000)  returns 0x00 (0000ms, 0201ms total)
T0EFC 000:331 JLINK_WriteReg(R4, 0x00000000)  returns 0x00 (0000ms, 0201ms total)
T0EFC 000:331 JLINK_WriteReg(R5, 0x00000000)  returns 0x00 (0000ms, 0201ms total)
T0EFC 000:331 JLINK_WriteReg(R6, 0x00000000)  returns 0x00 (0000ms, 0201ms total)
T0EFC 000:331 JLINK_WriteReg(R7, 0x00000000)  returns 0x00 (0000ms, 0201ms total)
T0EFC 000:331 JLINK_WriteReg(R8, 0x00000000)  returns 0x00 (0000ms, 0201ms total)
T0EFC 000:331 JLINK_WriteReg(R9, 0x20000160)  returns 0x00 (0000ms, 0201ms total)
T0EFC 000:331 JLINK_WriteReg(R10, 0x00000000)  returns 0x00 (0000ms, 0201ms total)
T0EFC 000:331 JLINK_WriteReg(R11, 0x00000000)  returns 0x00 (0000ms, 0201ms total)
T0EFC 000:331 JLINK_WriteReg(R12, 0x00000000)  returns 0x00 (0000ms, 0201ms total)
T0EFC 000:331 JLINK_WriteReg(R13, 0x20000800)  returns 0x00 (0000ms, 0201ms total)
T0EFC 000:331 JLINK_WriteReg(R14, 0x20000001)  returns 0x00 (0000ms, 0201ms total)
T0EFC 000:331 JLINK_WriteReg(R15, 0x200000F4)  returns 0x00 (0000ms, 0201ms total)
T0EFC 000:331 JLINK_WriteReg(XPSR, 0x01000000)  returns 0x00 (0000ms, 0201ms total)
T0EFC 000:331 JLINK_WriteReg(MSP, 0x20000800)  returns 0x00 (0000ms, 0201ms total)
T0EFC 000:331 JLINK_WriteReg(PSP, 0x20000800)  returns 0x00 (0000ms, 0201ms total)
T0EFC 000:331 JLINK_WriteReg(CFBP, 0x00000000)  returns 0x00 (0000ms, 0201ms total)
T0EFC 000:331 JLINK_SetBPEx(Addr = 0x20000000, Type = 0xFFFFFFF2)  returns 0x00000005 (0001ms, 0202ms total)
T0EFC 000:332 JLINK_Go() (0002ms, 0204ms total)
T0EFC 000:334 JLINK_IsHalted()  returns FALSE (0000ms, 0204ms total)
T0EFC 000:341 JLINK_IsHalted()  returns FALSE (0000ms, 0204ms total)
T0EFC 000:343 JLINK_IsHalted()  returns FALSE (0000ms, 0204ms total)
T0EFC 000:345 JLINK_IsHalted()  returns FALSE (0000ms, 0204ms total)
T0EFC 000:347 JLINK_IsHalted()  returns FALSE (0000ms, 0204ms total)
T0EFC 000:349 JLINK_IsHalted()  returns FALSE (0000ms, 0204ms total)
T0EFC 000:351 JLINK_IsHalted()  returns FALSE (0000ms, 0204ms total)
T0EFC 000:353 JLINK_IsHalted()  returns FALSE (0000ms, 0204ms total)
T0EFC 000:355 JLINK_IsHalted()  returns FALSE (0000ms, 0204ms total)
T0EFC 000:357 JLINK_IsHalted()  returns FALSE (0000ms, 0204ms total)
T0EFC 000:359 JLINK_IsHalted()  returns FALSE (0000ms, 0204ms total)
T0EFC 000:361 JLINK_IsHalted()  returns FALSE (0000ms, 0204ms total)
T0EFC 000:363 JLINK_IsHalted()  returns FALSE (0000ms, 0204ms total)
T0EFC 000:365 JLINK_IsHalted() -- CPU_ReadMem(2 bytes @ 0x20000000)  returns TRUE (0002ms, 0206ms total)
T0EFC 000:367 JLINK_ReadReg(R15)  returns 0x20000000 (0000ms, 0204ms total)
T0EFC 000:367 JLINK_ClrBPEx(BPHandle = 0x00000005)  returns 0x00 (0000ms, 0204ms total)
T0EFC 000:367 JLINK_ReadReg(R0)  returns 0x00000000 (0000ms, 0204ms total)
T0EFC 000:368 JLINK_WriteMem(0x20000164, 0x0400 Bytes, ...) -- Data:  00 F0 A2 FA 10 EB 08 00 61 41 00 24 87 EA 11 52 ... -- CPU_WriteMem(1024 bytes @ 0x20000164)  returns 0x400 (0007ms, 0211ms total)
T0EFC 000:375 JLINK_WriteReg(R0, 0x08000400)  returns 0x00 (0000ms, 0211ms total)
T0EFC 000:375 JLINK_WriteReg(R1, 0x00000400)  returns 0x00 (0000ms, 0211ms total)
T0EFC 000:375 JLINK_WriteReg(R2, 0x20000164)  returns 0x00 (0000ms, 0211ms total)
T0EFC 000:375 JLINK_WriteReg(R3, 0x00000000)  returns 0x00 (0000ms, 0211ms total)
T0EFC 000:375 JLINK_WriteReg(R4, 0x00000000)  returns 0x00 (0000ms, 0211ms total)
T0EFC 000:375 JLINK_WriteReg(R5, 0x00000000)  returns 0x00 (0000ms, 0211ms total)
T0EFC 000:375 JLINK_WriteReg(R6, 0x00000000)  returns 0x00 (0000ms, 0211ms total)
T0EFC 000:375 JLINK_WriteReg(R7, 0x00000000)  returns 0x00 (0000ms, 0211ms total)
T0EFC 000:375 JLINK_WriteReg(R8, 0x00000000)  returns 0x00 (0000ms, 0211ms total)
T0EFC 000:375 JLINK_WriteReg(R9, 0x20000160)  returns 0x00 (0000ms, 0211ms total)
T0EFC 000:375 JLINK_WriteReg(R10, 0x00000000)  returns 0x00 (0000ms, 0211ms total)
T0EFC 000:375 JLINK_WriteReg(R11, 0x00000000)  returns 0x00 (0000ms, 0211ms total)
T0EFC 000:375 JLINK_WriteReg(R12, 0x00000000)  returns 0x00 (0000ms, 0211ms total)
T0EFC 000:375 JLINK_WriteReg(R13, 0x20000800)  returns 0x00 (0000ms, 0211ms total)
T0EFC 000:375 JLINK_WriteReg(R14, 0x20000001)  returns 0x00 (0000ms, 0211ms total)
T0EFC 000:375 JLINK_WriteReg(R15, 0x200000F4)  returns 0x00 (0000ms, 0211ms total)
T0EFC 000:375 JLINK_WriteReg(XPSR, 0x01000000)  returns 0x00 (0000ms, 0211ms total)
T0EFC 000:375 JLINK_WriteReg(MSP, 0x20000800)  returns 0x00 (0000ms, 0211ms total)
T0EFC 000:375 JLINK_WriteReg(PSP, 0x20000800)  returns 0x00 (0000ms, 0211ms total)
T0EFC 000:375 JLINK_WriteReg(CFBP, 0x00000000)  returns 0x00 (0000ms, 0211ms total)
T0EFC 000:375 JLINK_SetBPEx(Addr = 0x20000000, Type = 0xFFFFFFF2)  returns 0x00000006 (0000ms, 0211ms total)
T0EFC 000:375 JLINK_Go() (0002ms, 0213ms total)
T0EFC 000:377 JLINK_IsHalted()  returns FALSE (0000ms, 0213ms total)
T0EFC 000:380 JLINK_IsHalted()  returns FALSE (0000ms, 0213ms total)
T0EFC 000:382 JLINK_IsHalted()  returns FALSE (0000ms, 0213ms total)
T0EFC 000:384 JLINK_IsHalted()  returns FALSE (0000ms, 0213ms total)
T0EFC 000:386 JLINK_IsHalted()  returns FALSE (0000ms, 0213ms total)
T0EFC 000:388 JLINK_IsHalted()  returns FALSE (0000ms, 0213ms total)
T0EFC 000:390 JLINK_IsHalted()  returns FALSE (0000ms, 0213ms total)
T0EFC 000:392 JLINK_IsHalted()  returns FALSE (0000ms, 0213ms total)
T0EFC 000:394 JLINK_IsHalted()  returns FALSE (0000ms, 0213ms total)
T0EFC 000:396 JLINK_IsHalted()  returns FALSE (0000ms, 0213ms total)
T0EFC 000:398 JLINK_IsHalted()  returns FALSE (0000ms, 0213ms total)
T0EFC 000:400 JLINK_IsHalted()  returns FALSE (0000ms, 0213ms total)
T0EFC 000:402 JLINK_IsHalted()  returns FALSE (0000ms, 0213ms total)
T0EFC 000:404 JLINK_IsHalted()  returns FALSE (0000ms, 0213ms total)
T0EFC 000:406 JLINK_IsHalted()  returns FALSE (0000ms, 0213ms total)
T0EFC 000:407 JLINK_IsHalted()  returns FALSE (0000ms, 0213ms total)
T0EFC 000:409 JLINK_IsHalted() -- CPU_ReadMem(2 bytes @ 0x20000000)  returns TRUE (0003ms, 0216ms total)
T0EFC 000:412 JLINK_ReadReg(R15)  returns 0x20000000 (0000ms, 0213ms total)
T0EFC 000:412 JLINK_ClrBPEx(BPHandle = 0x00000006)  returns 0x00 (0000ms, 0213ms total)
T0EFC 000:412 JLINK_ReadReg(R0)  returns 0x00000000 (0000ms, 0213ms total)
T0EFC 000:412 JLINK_WriteMem(0x20000164, 0x0400 Bytes, ...) -- Data:  64 EB 01 01 00 2B 04 DB 4F F0 00 44 52 42 64 EB ... -- CPU_WriteMem(1024 bytes @ 0x20000164)  returns 0x400 (0007ms, 0220ms total)
T0EFC 000:419 JLINK_WriteReg(R0, 0x08000800)  returns 0x00 (0000ms, 0220ms total)
T0EFC 000:419 JLINK_WriteReg(R1, 0x00000400)  returns 0x00 (0000ms, 0220ms total)
T0EFC 000:419 JLINK_WriteReg(R2, 0x20000164)  returns 0x00 (0000ms, 0220ms total)
T0EFC 000:419 JLINK_WriteReg(R3, 0x00000000)  returns 0x00 (0000ms, 0220ms total)
T0EFC 000:419 JLINK_WriteReg(R4, 0x00000000)  returns 0x00 (0000ms, 0220ms total)
T0EFC 000:419 JLINK_WriteReg(R5, 0x00000000)  returns 0x00 (0000ms, 0220ms total)
T0EFC 000:419 JLINK_WriteReg(R6, 0x00000000)  returns 0x00 (0000ms, 0220ms total)
T0EFC 000:419 JLINK_WriteReg(R7, 0x00000000)  returns 0x00 (0000ms, 0220ms total)
T0EFC 000:419 JLINK_WriteReg(R8, 0x00000000)  returns 0x00 (0000ms, 0220ms total)
T0EFC 000:419 JLINK_WriteReg(R9, 0x20000160)  returns 0x00 (0000ms, 0220ms total)
T0EFC 000:419 JLINK_WriteReg(R10, 0x00000000)  returns 0x00 (0000ms, 0220ms total)
T0EFC 000:419 JLINK_WriteReg(R11, 0x00000000)  returns 0x00 (0000ms, 0220ms total)
T0EFC 000:419 JLINK_WriteReg(R12, 0x00000000)  returns 0x00 (0000ms, 0220ms total)
T0EFC 000:419 JLINK_WriteReg(R13, 0x20000800)  returns 0x00 (0000ms, 0220ms total)
T0EFC 000:419 JLINK_WriteReg(R14, 0x20000001)  returns 0x00 (0000ms, 0220ms total)
T0EFC 000:419 JLINK_WriteReg(R15, 0x200000F4)  returns 0x00 (0000ms, 0220ms total)
T0EFC 000:419 JLINK_WriteReg(XPSR, 0x01000000)  returns 0x00 (0000ms, 0220ms total)
T0EFC 000:419 JLINK_WriteReg(MSP, 0x20000800)  returns 0x00 (0000ms, 0220ms total)
T0EFC 000:419 JLINK_WriteReg(PSP, 0x20000800)  returns 0x00 (0000ms, 0220ms total)
T0EFC 000:419 JLINK_WriteReg(CFBP, 0x00000000)  returns 0x00 (0000ms, 0220ms total)
T0EFC 000:419 JLINK_SetBPEx(Addr = 0x20000000, Type = 0xFFFFFFF2)  returns 0x00000007 (0000ms, 0220ms total)
T0EFC 000:419 JLINK_Go() (0002ms, 0222ms total)
T0EFC 000:421 JLINK_IsHalted()  returns FALSE (0001ms, 0223ms total)
T0EFC 000:425 JLINK_IsHalted()  returns FALSE (0000ms, 0222ms total)
T0EFC 000:427 JLINK_IsHalted()  returns FALSE (0000ms, 0222ms total)
T0EFC 000:429 JLINK_IsHalted()  returns FALSE (0000ms, 0222ms total)
T0EFC 000:431 JLINK_IsHalted()  returns FALSE (0000ms, 0222ms total)
T0EFC 000:433 JLINK_IsHalted()  returns FALSE (0000ms, 0222ms total)
T0EFC 000:435 JLINK_IsHalted()  returns FALSE (0000ms, 0222ms total)
T0EFC 000:437 JLINK_IsHalted()  returns FALSE (0000ms, 0222ms total)
T0EFC 000:439 JLINK_IsHalted()  returns FALSE (0000ms, 0222ms total)
T0EFC 000:441 JLINK_IsHalted()  returns FALSE (0000ms, 0222ms total)
T0EFC 000:443 JLINK_IsHalted()  returns FALSE (0000ms, 0222ms total)
T0EFC 000:446 JLINK_IsHalted()  returns FALSE (0000ms, 0222ms total)
T0EFC 000:448 JLINK_IsHalted()  returns FALSE (0000ms, 0222ms total)
T0EFC 000:449 JLINK_IsHalted()  returns FALSE (0000ms, 0222ms total)
T0EFC 000:451 JLINK_IsHalted()  returns FALSE (0000ms, 0222ms total)
T0EFC 000:453 JLINK_IsHalted() -- CPU_ReadMem(2 bytes @ 0x20000000)  returns TRUE (0003ms, 0225ms total)
T0EFC 000:456 JLINK_ReadReg(R15)  returns 0x20000000 (0000ms, 0222ms total)
T0EFC 000:456 JLINK_ClrBPEx(BPHandle = 0x00000007)  returns 0x00 (0000ms, 0222ms total)
T0EFC 000:456 JLINK_ReadReg(R0)  returns 0x00000000 (0000ms, 0222ms total)
T0EFC 000:457 JLINK_WriteMem(0x20000164, 0x0400 Bytes, ...) -- Data:  6B 20 6D 61 78 20 3A 32 35 36 21 21 00 00 00 00 ... -- CPU_WriteMem(1024 bytes @ 0x20000164)  returns 0x400 (0007ms, 0229ms total)
T0EFC 000:464 JLINK_WriteReg(R0, 0x08000C00)  returns 0x00 (0000ms, 0229ms total)
T0EFC 000:464 JLINK_WriteReg(R1, 0x00000400)  returns 0x00 (0000ms, 0229ms total)
T0EFC 000:464 JLINK_WriteReg(R2, 0x20000164)  returns 0x00 (0000ms, 0229ms total)
T0EFC 000:464 JLINK_WriteReg(R3, 0x00000000)  returns 0x00 (0000ms, 0229ms total)
T0EFC 000:464 JLINK_WriteReg(R4, 0x00000000)  returns 0x00 (0000ms, 0229ms total)
T0EFC 000:464 JLINK_WriteReg(R5, 0x00000000)  returns 0x00 (0000ms, 0229ms total)
T0EFC 000:464 JLINK_WriteReg(R6, 0x00000000)  returns 0x00 (0000ms, 0229ms total)
T0EFC 000:464 JLINK_WriteReg(R7, 0x00000000)  returns 0x00 (0000ms, 0229ms total)
T0EFC 000:464 JLINK_WriteReg(R8, 0x00000000)  returns 0x00 (0000ms, 0229ms total)
T0EFC 000:464 JLINK_WriteReg(R9, 0x20000160)  returns 0x00 (0000ms, 0229ms total)
T0EFC 000:464 JLINK_WriteReg(R10, 0x00000000)  returns 0x00 (0000ms, 0229ms total)
T0EFC 000:464 JLINK_WriteReg(R11, 0x00000000)  returns 0x00 (0000ms, 0229ms total)
T0EFC 000:464 JLINK_WriteReg(R12, 0x00000000)  returns 0x00 (0000ms, 0229ms total)
T0EFC 000:464 JLINK_WriteReg(R13, 0x20000800)  returns 0x00 (0000ms, 0229ms total)
T0EFC 000:464 JLINK_WriteReg(R14, 0x20000001)  returns 0x00 (0000ms, 0229ms total)
T0EFC 000:464 JLINK_WriteReg(R15, 0x200000F4)  returns 0x00 (0000ms, 0229ms total)
T0EFC 000:464 JLINK_WriteReg(XPSR, 0x01000000)  returns 0x00 (0000ms, 0229ms total)
T0EFC 000:464 JLINK_WriteReg(MSP, 0x20000800)  returns 0x00 (0000ms, 0229ms total)
T0EFC 000:464 JLINK_WriteReg(PSP, 0x20000800)  returns 0x00 (0000ms, 0229ms total)
T0EFC 000:464 JLINK_WriteReg(CFBP, 0x00000000)  returns 0x00 (0000ms, 0229ms total)
T0EFC 000:464 JLINK_SetBPEx(Addr = 0x20000000, Type = 0xFFFFFFF2)  returns 0x00000008 (0000ms, 0229ms total)
T0EFC 000:464 JLINK_Go() (0002ms, 0231ms total)
T0EFC 000:466 JLINK_IsHalted()  returns FALSE (0001ms, 0232ms total)
T0EFC 000:469 JLINK_IsHalted()  returns FALSE (0000ms, 0231ms total)
T0EFC 000:473 JLINK_IsHalted()  returns FALSE (0000ms, 0231ms total)
T0EFC 000:475 JLINK_IsHalted()  returns FALSE (0000ms, 0231ms total)
T0EFC 000:477 JLINK_IsHalted()  returns FALSE (0000ms, 0231ms total)
T0EFC 000:480 JLINK_IsHalted()  returns FALSE (0000ms, 0231ms total)
T0EFC 000:482 JLINK_IsHalted()  returns FALSE (0000ms, 0231ms total)
T0EFC 000:484 JLINK_IsHalted()  returns FALSE (0000ms, 0231ms total)
T0EFC 000:487 JLINK_IsHalted()  returns FALSE (0000ms, 0231ms total)
T0EFC 000:489 JLINK_IsHalted()  returns FALSE (0000ms, 0231ms total)
T0EFC 000:491 JLINK_IsHalted()  returns FALSE (0000ms, 0231ms total)
T0EFC 000:492 JLINK_IsHalted()  returns FALSE (0000ms, 0231ms total)
T0EFC 000:496 JLINK_IsHalted()  returns FALSE (0000ms, 0231ms total)
T0EFC 000:498 JLINK_IsHalted() -- CPU_ReadMem(2 bytes @ 0x20000000)  returns TRUE (0003ms, 0234ms total)
T0EFC 000:501 JLINK_ReadReg(R15)  returns 0x20000000 (0000ms, 0231ms total)
T0EFC 000:501 JLINK_ClrBPEx(BPHandle = 0x00000008)  returns 0x00 (0000ms, 0231ms total)
T0EFC 000:501 JLINK_ReadReg(R0)  returns 0x00000000 (0000ms, 0231ms total)
T0EFC 000:502 JLINK_WriteMem(0x20000164, 0x0400 Bytes, ...) -- Data:  9B 1C 00 22 03 21 00 90 10 46 00 F0 39 FB 5D 48 ... -- CPU_WriteMem(1024 bytes @ 0x20000164)  returns 0x400 (0006ms, 0237ms total)
T0EFC 000:508 JLINK_WriteReg(R0, 0x08001000)  returns 0x00 (0000ms, 0237ms total)
T0EFC 000:508 JLINK_WriteReg(R1, 0x00000400)  returns 0x00 (0000ms, 0237ms total)
T0EFC 000:508 JLINK_WriteReg(R2, 0x20000164)  returns 0x00 (0000ms, 0237ms total)
T0EFC 000:508 JLINK_WriteReg(R3, 0x00000000)  returns 0x00 (0000ms, 0237ms total)
T0EFC 000:508 JLINK_WriteReg(R4, 0x00000000)  returns 0x00 (0000ms, 0237ms total)
T0EFC 000:508 JLINK_WriteReg(R5, 0x00000000)  returns 0x00 (0000ms, 0237ms total)
T0EFC 000:508 JLINK_WriteReg(R6, 0x00000000)  returns 0x00 (0000ms, 0237ms total)
T0EFC 000:508 JLINK_WriteReg(R7, 0x00000000)  returns 0x00 (0000ms, 0237ms total)
T0EFC 000:508 JLINK_WriteReg(R8, 0x00000000)  returns 0x00 (0001ms, 0238ms total)
T0EFC 000:509 JLINK_WriteReg(R9, 0x20000160)  returns 0x00 (0000ms, 0238ms total)
T0EFC 000:509 JLINK_WriteReg(R10, 0x00000000)  returns 0x00 (0000ms, 0238ms total)
T0EFC 000:509 JLINK_WriteReg(R11, 0x00000000)  returns 0x00 (0000ms, 0238ms total)
T0EFC 000:509 JLINK_WriteReg(R12, 0x00000000)  returns 0x00 (0000ms, 0238ms total)
T0EFC 000:509 JLINK_WriteReg(R13, 0x20000800)  returns 0x00 (0000ms, 0238ms total)
T0EFC 000:509 JLINK_WriteReg(R14, 0x20000001)  returns 0x00 (0000ms, 0238ms total)
T0EFC 000:509 JLINK_WriteReg(R15, 0x200000F4)  returns 0x00 (0000ms, 0238ms total)
T0EFC 000:509 JLINK_WriteReg(XPSR, 0x01000000)  returns 0x00 (0000ms, 0238ms total)
T0EFC 000:509 JLINK_WriteReg(MSP, 0x20000800)  returns 0x00 (0000ms, 0238ms total)
T0EFC 000:509 JLINK_WriteReg(PSP, 0x20000800)  returns 0x00 (0000ms, 0238ms total)
T0EFC 000:509 JLINK_WriteReg(CFBP, 0x00000000)  returns 0x00 (0000ms, 0238ms total)
T0EFC 000:509 JLINK_SetBPEx(Addr = 0x20000000, Type = 0xFFFFFFF2)  returns 0x00000009 (0000ms, 0238ms total)
T0EFC 000:509 JLINK_Go() (0002ms, 0240ms total)
T0EFC 000:511 JLINK_IsHalted()  returns FALSE (0000ms, 0240ms total)
T0EFC 000:514 JLINK_IsHalted()  returns FALSE (0000ms, 0240ms total)
T0EFC 000:516 JLINK_IsHalted()  returns FALSE (0000ms, 0240ms total)
T0EFC 000:518 JLINK_IsHalted()  returns FALSE (0000ms, 0240ms total)
T0EFC 000:520 JLINK_IsHalted()  returns FALSE (0000ms, 0240ms total)
T0EFC 000:522 JLINK_IsHalted()  returns FALSE (0000ms, 0240ms total)
T0EFC 000:524 JLINK_IsHalted()  returns FALSE (0000ms, 0240ms total)
T0EFC 000:652 JLINK_IsHalted() -- CPU_ReadMem(2 bytes @ 0x20000000)  returns TRUE (0003ms, 0243ms total)
T0EFC 000:655 JLINK_ReadReg(R15)  returns 0x20000000 (0000ms, 0240ms total)
T0EFC 000:655 JLINK_ClrBPEx(BPHandle = 0x00000009)  returns 0x00 (0000ms, 0240ms total)
T0EFC 000:655 JLINK_ReadReg(R0)  returns 0x00000000 (0000ms, 0240ms total)
T0EFC 000:656 JLINK_WriteMem(0x20000164, 0x0400 Bytes, ...) -- Data:  71 20 01 49 08 70 70 47 8D 00 00 20 08 B5 01 21 ... -- CPU_WriteMem(1024 bytes @ 0x20000164)  returns 0x400 (0006ms, 0246ms total)
T0EFC 000:662 JLINK_WriteReg(R0, 0x08001400)  returns 0x00 (0000ms, 0246ms total)
T0EFC 000:662 JLINK_WriteReg(R1, 0x00000400)  returns 0x00 (0000ms, 0246ms total)
T0EFC 000:662 JLINK_WriteReg(R2, 0x20000164)  returns 0x00 (0000ms, 0246ms total)
T0EFC 000:662 JLINK_WriteReg(R3, 0x00000000)  returns 0x00 (0000ms, 0246ms total)
T0EFC 000:662 JLINK_WriteReg(R4, 0x00000000)  returns 0x00 (0000ms, 0246ms total)
T0EFC 000:662 JLINK_WriteReg(R5, 0x00000000)  returns 0x00 (0000ms, 0246ms total)
T0EFC 000:662 JLINK_WriteReg(R6, 0x00000000)  returns 0x00 (0000ms, 0246ms total)
T0EFC 000:662 JLINK_WriteReg(R7, 0x00000000)  returns 0x00 (0000ms, 0246ms total)
T0EFC 000:662 JLINK_WriteReg(R8, 0x00000000)  returns 0x00 (0000ms, 0246ms total)
T0EFC 000:662 JLINK_WriteReg(R9, 0x20000160)  returns 0x00 (0000ms, 0246ms total)
T0EFC 000:662 JLINK_WriteReg(R10, 0x00000000)  returns 0x00 (0000ms, 0246ms total)
T0EFC 000:662 JLINK_WriteReg(R11, 0x00000000)  returns 0x00 (0000ms, 0246ms total)
T0EFC 000:662 JLINK_WriteReg(R12, 0x00000000)  returns 0x00 (0000ms, 0246ms total)
T0EFC 000:662 JLINK_WriteReg(R13, 0x20000800)  returns 0x00 (0000ms, 0246ms total)
T0EFC 000:662 JLINK_WriteReg(R14, 0x20000001)  returns 0x00 (0000ms, 0246ms total)
T0EFC 000:662 JLINK_WriteReg(R15, 0x200000F4)  returns 0x00 (0000ms, 0246ms total)
T0EFC 000:662 JLINK_WriteReg(XPSR, 0x01000000)  returns 0x00 (0000ms, 0246ms total)
T0EFC 000:662 JLINK_WriteReg(MSP, 0x20000800)  returns 0x00 (0000ms, 0246ms total)
T0EFC 000:662 JLINK_WriteReg(PSP, 0x20000800)  returns 0x00 (0000ms, 0246ms total)
T0EFC 000:662 JLINK_WriteReg(CFBP, 0x00000000)  returns 0x00 (0000ms, 0246ms total)
T0EFC 000:662 JLINK_SetBPEx(Addr = 0x20000000, Type = 0xFFFFFFF2)  returns 0x0000000A (0000ms, 0246ms total)
T0EFC 000:662 JLINK_Go() (0002ms, 0248ms total)
T0EFC 000:664 JLINK_IsHalted()  returns FALSE (0001ms, 0249ms total)
T0EFC 000:667 JLINK_IsHalted()  returns FALSE (0000ms, 0248ms total)
T0EFC 000:669 JLINK_IsHalted()  returns FALSE (0000ms, 0248ms total)
T0EFC 000:671 JLINK_IsHalted()  returns FALSE (0000ms, 0248ms total)
T0EFC 000:673 JLINK_IsHalted()  returns FALSE (0000ms, 0248ms total)
T0EFC 000:675 JLINK_IsHalted()  returns FALSE (0000ms, 0248ms total)
T0EFC 000:677 JLINK_IsHalted()  returns FALSE (0000ms, 0248ms total)
T0EFC 000:679 JLINK_IsHalted()  returns FALSE (0000ms, 0248ms total)
T0EFC 000:681 JLINK_IsHalted()  returns FALSE (0000ms, 0248ms total)
T0EFC 000:683 JLINK_IsHalted()  returns FALSE (0000ms, 0248ms total)
T0EFC 000:685 JLINK_IsHalted()  returns FALSE (0000ms, 0248ms total)
T0EFC 000:687 JLINK_IsHalted()  returns FALSE (0000ms, 0248ms total)
T0EFC 000:689 JLINK_IsHalted()  returns FALSE (0000ms, 0248ms total)
T0EFC 000:691 JLINK_IsHalted()  returns FALSE (0000ms, 0248ms total)
T0EFC 000:693 JLINK_IsHalted()  returns FALSE (0000ms, 0248ms total)
T0EFC 000:696 JLINK_IsHalted() -- CPU_ReadMem(2 bytes @ 0x20000000)  returns TRUE (0003ms, 0251ms total)
T0EFC 000:699 JLINK_ReadReg(R15)  returns 0x20000000 (0000ms, 0248ms total)
T0EFC 000:699 JLINK_ClrBPEx(BPHandle = 0x0000000A)  returns 0x00 (0000ms, 0248ms total)
T0EFC 000:699 JLINK_ReadReg(R0)  returns 0x00000000 (0000ms, 0248ms total)
T0EFC 000:699 JLINK_WriteMem(0x20000164, 0x0400 Bytes, ...) -- Data:  76 69 63 65 20 49 44 20 69 73 20 30 78 25 78 0D ... -- CPU_WriteMem(1024 bytes @ 0x20000164)  returns 0x400 (0007ms, 0255ms total)
T0EFC 000:706 JLINK_WriteReg(R0, 0x08001800)  returns 0x00 (0000ms, 0255ms total)
T0EFC 000:706 JLINK_WriteReg(R1, 0x00000400)  returns 0x00 (0000ms, 0255ms total)
T0EFC 000:706 JLINK_WriteReg(R2, 0x20000164)  returns 0x00 (0000ms, 0255ms total)
T0EFC 000:706 JLINK_WriteReg(R3, 0x00000000)  returns 0x00 (0000ms, 0255ms total)
T0EFC 000:706 JLINK_WriteReg(R4, 0x00000000)  returns 0x00 (0000ms, 0255ms total)
T0EFC 000:706 JLINK_WriteReg(R5, 0x00000000)  returns 0x00 (0000ms, 0255ms total)
T0EFC 000:706 JLINK_WriteReg(R6, 0x00000000)  returns 0x00 (0000ms, 0255ms total)
T0EFC 000:706 JLINK_WriteReg(R7, 0x00000000)  returns 0x00 (0000ms, 0255ms total)
T0EFC 000:706 JLINK_WriteReg(R8, 0x00000000)  returns 0x00 (0000ms, 0255ms total)
T0EFC 000:706 JLINK_WriteReg(R9, 0x20000160)  returns 0x00 (0000ms, 0255ms total)
T0EFC 000:706 JLINK_WriteReg(R10, 0x00000000)  returns 0x00 (0000ms, 0255ms total)
T0EFC 000:706 JLINK_WriteReg(R11, 0x00000000)  returns 0x00 (0000ms, 0255ms total)
T0EFC 000:706 JLINK_WriteReg(R12, 0x00000000)  returns 0x00 (0000ms, 0255ms total)
T0EFC 000:706 JLINK_WriteReg(R13, 0x20000800)  returns 0x00 (0000ms, 0255ms total)
T0EFC 000:706 JLINK_WriteReg(R14, 0x20000001)  returns 0x00 (0000ms, 0255ms total)
T0EFC 000:706 JLINK_WriteReg(R15, 0x200000F4)  returns 0x00 (0000ms, 0255ms total)
T0EFC 000:706 JLINK_WriteReg(XPSR, 0x01000000)  returns 0x00 (0000ms, 0255ms total)
T0EFC 000:706 JLINK_WriteReg(MSP, 0x20000800)  returns 0x00 (0000ms, 0255ms total)
T0EFC 000:706 JLINK_WriteReg(PSP, 0x20000800)  returns 0x00 (0000ms, 0255ms total)
T0EFC 000:706 JLINK_WriteReg(CFBP, 0x00000000)  returns 0x00 (0000ms, 0255ms total)
T0EFC 000:706 JLINK_SetBPEx(Addr = 0x20000000, Type = 0xFFFFFFF2)  returns 0x0000000B (0000ms, 0255ms total)
T0EFC 000:706 JLINK_Go() (0002ms, 0257ms total)
T0EFC 000:708 JLINK_IsHalted()  returns FALSE (0001ms, 0258ms total)
T0EFC 000:711 JLINK_IsHalted()  returns FALSE (0000ms, 0257ms total)
T0EFC 000:713 JLINK_IsHalted()  returns FALSE (0000ms, 0257ms total)
T0EFC 000:715 JLINK_IsHalted()  returns FALSE (0000ms, 0257ms total)
T0EFC 000:717 JLINK_IsHalted()  returns FALSE (0000ms, 0257ms total)
T0EFC 000:719 JLINK_IsHalted()  returns FALSE (0000ms, 0257ms total)
T0EFC 000:721 JLINK_IsHalted()  returns FALSE (0000ms, 0257ms total)
T0EFC 000:723 JLINK_IsHalted()  returns FALSE (0000ms, 0257ms total)
T0EFC 000:725 JLINK_IsHalted()  returns FALSE (0000ms, 0257ms total)
T0EFC 000:727 JLINK_IsHalted()  returns FALSE (0000ms, 0257ms total)
T0EFC 000:729 JLINK_IsHalted()  returns FALSE (0000ms, 0257ms total)
T0EFC 000:731 JLINK_IsHalted()  returns FALSE (0000ms, 0257ms total)
T0EFC 000:733 JLINK_IsHalted()  returns FALSE (0000ms, 0257ms total)
T0EFC 000:735 JLINK_IsHalted()  returns FALSE (0000ms, 0257ms total)
T0EFC 000:737 JLINK_IsHalted()  returns FALSE (0000ms, 0257ms total)
T0EFC 000:739 JLINK_IsHalted()  returns FALSE (0000ms, 0257ms total)
T0EFC 000:741 JLINK_IsHalted() -- CPU_ReadMem(2 bytes @ 0x20000000)  returns TRUE (0002ms, 0259ms total)
T0EFC 000:743 JLINK_ReadReg(R15)  returns 0x20000000 (0000ms, 0257ms total)
T0EFC 000:743 JLINK_ClrBPEx(BPHandle = 0x0000000B)  returns 0x00 (0000ms, 0257ms total)
T0EFC 000:743 JLINK_ReadReg(R0)  returns 0x00000000 (0000ms, 0257ms total)
T0EFC 000:744 JLINK_WriteMem(0x20000164, 0x0400 Bytes, ...) -- Data:  08 0C 4F F0 01 08 08 FA 0C F3 B1 F8 00 C0 0C EA ... -- CPU_WriteMem(1024 bytes @ 0x20000164)  returns 0x400 (0006ms, 0263ms total)
T0EFC 000:750 JLINK_WriteReg(R0, 0x08001C00)  returns 0x00 (0000ms, 0263ms total)
T0EFC 000:750 JLINK_WriteReg(R1, 0x00000400)  returns 0x00 (0000ms, 0263ms total)
T0EFC 000:750 JLINK_WriteReg(R2, 0x20000164)  returns 0x00 (0000ms, 0263ms total)
T0EFC 000:751 JLINK_WriteReg(R3, 0x00000000)  returns 0x00 (0000ms, 0264ms total)
T0EFC 000:751 JLINK_WriteReg(R4, 0x00000000)  returns 0x00 (0000ms, 0264ms total)
T0EFC 000:751 JLINK_WriteReg(R5, 0x00000000)  returns 0x00 (0000ms, 0264ms total)
T0EFC 000:751 JLINK_WriteReg(R6, 0x00000000)  returns 0x00 (0000ms, 0264ms total)
T0EFC 000:751 JLINK_WriteReg(R7, 0x00000000)  returns 0x00 (0000ms, 0264ms total)
T0EFC 000:751 JLINK_WriteReg(R8, 0x00000000)  returns 0x00 (0000ms, 0264ms total)
T0EFC 000:751 JLINK_WriteReg(R9, 0x20000160)  returns 0x00 (0000ms, 0264ms total)
T0EFC 000:751 JLINK_WriteReg(R10, 0x00000000)  returns 0x00 (0000ms, 0264ms total)
T0EFC 000:751 JLINK_WriteReg(R11, 0x00000000)  returns 0x00 (0000ms, 0264ms total)
T0EFC 000:751 JLINK_WriteReg(R12, 0x00000000)  returns 0x00 (0000ms, 0264ms total)
T0EFC 000:751 JLINK_WriteReg(R13, 0x20000800)  returns 0x00 (0000ms, 0264ms total)
T0EFC 000:751 JLINK_WriteReg(R14, 0x20000001)  returns 0x00 (0000ms, 0264ms total)
T0EFC 000:751 JLINK_WriteReg(R15, 0x200000F4)  returns 0x00 (0000ms, 0264ms total)
T0EFC 000:751 JLINK_WriteReg(XPSR, 0x01000000)  returns 0x00 (0000ms, 0264ms total)
T0EFC 000:751 JLINK_WriteReg(MSP, 0x20000800)  returns 0x00 (0000ms, 0264ms total)
T0EFC 000:751 JLINK_WriteReg(PSP, 0x20000800)  returns 0x00 (0000ms, 0264ms total)
T0EFC 000:751 JLINK_WriteReg(CFBP, 0x00000000)  returns 0x00 (0000ms, 0264ms total)
T0EFC 000:751 JLINK_SetBPEx(Addr = 0x20000000, Type = 0xFFFFFFF2)  returns 0x0000000C (0000ms, 0264ms total)
T0EFC 000:751 JLINK_Go() (0002ms, 0266ms total)
T0EFC 000:753 JLINK_IsHalted()  returns FALSE (0000ms, 0266ms total)
T0EFC 000:756 JLINK_IsHalted()  returns FALSE (0000ms, 0266ms total)
T0EFC 000:758 JLINK_IsHalted()  returns FALSE (0000ms, 0266ms total)
T0EFC 000:760 JLINK_IsHalted()  returns FALSE (0000ms, 0266ms total)
T0EFC 000:762 JLINK_IsHalted()  returns FALSE (0000ms, 0266ms total)
T0EFC 000:764 JLINK_IsHalted()  returns FALSE (0000ms, 0266ms total)
T0EFC 000:766 JLINK_IsHalted()  returns FALSE (0000ms, 0266ms total)
T0EFC 000:768 JLINK_IsHalted()  returns FALSE (0000ms, 0266ms total)
T0EFC 000:770 JLINK_IsHalted()  returns FALSE (0000ms, 0266ms total)
T0EFC 000:772 JLINK_IsHalted()  returns FALSE (0000ms, 0266ms total)
T0EFC 000:775 JLINK_IsHalted()  returns FALSE (0000ms, 0266ms total)
T0EFC 000:777 JLINK_IsHalted()  returns FALSE (0000ms, 0266ms total)
T0EFC 000:779 JLINK_IsHalted()  returns FALSE (0000ms, 0266ms total)
T0EFC 000:781 JLINK_IsHalted()  returns FALSE (0000ms, 0266ms total)
T0EFC 000:782 JLINK_IsHalted()  returns FALSE (0000ms, 0266ms total)
T0EFC 000:784 JLINK_IsHalted() -- CPU_ReadMem(2 bytes @ 0x20000000)  returns TRUE (0003ms, 0269ms total)
T0EFC 000:787 JLINK_ReadReg(R15)  returns 0x20000000 (0000ms, 0266ms total)
T0EFC 000:787 JLINK_ClrBPEx(BPHandle = 0x0000000C)  returns 0x00 (0000ms, 0266ms total)
T0EFC 000:787 JLINK_ReadReg(R0)  returns 0x00000000 (0000ms, 0266ms total)
T0EFC 000:788 JLINK_WriteMem(0x20000164, 0x0400 Bytes, ...) -- Data:  F3 E7 00 00 AF AF 00 00 AF 80 10 02 00 00 9F 0D ... -- CPU_WriteMem(1024 bytes @ 0x20000164)  returns 0x400 (0007ms, 0273ms total)
T0EFC 000:795 JLINK_WriteReg(R0, 0x08002000)  returns 0x00 (0000ms, 0273ms total)
T0EFC 000:795 JLINK_WriteReg(R1, 0x00000400)  returns 0x00 (0000ms, 0273ms total)
T0EFC 000:795 JLINK_WriteReg(R2, 0x20000164)  returns 0x00 (0000ms, 0273ms total)
T0EFC 000:795 JLINK_WriteReg(R3, 0x00000000)  returns 0x00 (0000ms, 0273ms total)
T0EFC 000:795 JLINK_WriteReg(R4, 0x00000000)  returns 0x00 (0000ms, 0273ms total)
T0EFC 000:795 JLINK_WriteReg(R5, 0x00000000)  returns 0x00 (0000ms, 0273ms total)
T0EFC 000:795 JLINK_WriteReg(R6, 0x00000000)  returns 0x00 (0000ms, 0273ms total)
T0EFC 000:795 JLINK_WriteReg(R7, 0x00000000)  returns 0x00 (0000ms, 0273ms total)
T0EFC 000:795 JLINK_WriteReg(R8, 0x00000000)  returns 0x00 (0000ms, 0273ms total)
T0EFC 000:795 JLINK_WriteReg(R9, 0x20000160)  returns 0x00 (0000ms, 0273ms total)
T0EFC 000:795 JLINK_WriteReg(R10, 0x00000000)  returns 0x00 (0000ms, 0273ms total)
T0EFC 000:795 JLINK_WriteReg(R11, 0x00000000)  returns 0x00 (0000ms, 0273ms total)
T0EFC 000:795 JLINK_WriteReg(R12, 0x00000000)  returns 0x00 (0000ms, 0273ms total)
T0EFC 000:795 JLINK_WriteReg(R13, 0x20000800)  returns 0x00 (0000ms, 0273ms total)
T0EFC 000:795 JLINK_WriteReg(R14, 0x20000001)  returns 0x00 (0000ms, 0273ms total)
T0EFC 000:795 JLINK_WriteReg(R15, 0x200000F4)  returns 0x00 (0000ms, 0273ms total)
T0EFC 000:795 JLINK_WriteReg(XPSR, 0x01000000)  returns 0x00 (0000ms, 0273ms total)
T0EFC 000:795 JLINK_WriteReg(MSP, 0x20000800)  returns 0x00 (0000ms, 0273ms total)
T0EFC 000:795 JLINK_WriteReg(PSP, 0x20000800)  returns 0x00 (0000ms, 0273ms total)
T0EFC 000:795 JLINK_WriteReg(CFBP, 0x00000000)  returns 0x00 (0000ms, 0273ms total)
T0EFC 000:795 JLINK_SetBPEx(Addr = 0x20000000, Type = 0xFFFFFFF2)  returns 0x0000000D (0000ms, 0273ms total)
T0EFC 000:795 JLINK_Go() (0002ms, 0275ms total)
T0EFC 000:797 JLINK_IsHalted()  returns FALSE (0000ms, 0275ms total)
T0EFC 000:800 JLINK_IsHalted()  returns FALSE (0000ms, 0275ms total)
T0EFC 000:802 JLINK_IsHalted()  returns FALSE (0000ms, 0275ms total)
T0EFC 000:807 JLINK_IsHalted()  returns FALSE (0000ms, 0275ms total)
T0EFC 000:809 JLINK_IsHalted()  returns FALSE (0000ms, 0275ms total)
T0EFC 000:811 JLINK_IsHalted()  returns FALSE (0000ms, 0275ms total)
T0EFC 000:813 JLINK_IsHalted()  returns FALSE (0000ms, 0275ms total)
T0EFC 000:815 JLINK_IsHalted()  returns FALSE (0000ms, 0275ms total)
T0EFC 000:817 JLINK_IsHalted()  returns FALSE (0000ms, 0275ms total)
T0EFC 000:819 JLINK_IsHalted()  returns FALSE (0000ms, 0275ms total)
T0EFC 000:821 JLINK_IsHalted()  returns FALSE (0000ms, 0275ms total)
T0EFC 000:824 JLINK_IsHalted()  returns FALSE (0000ms, 0275ms total)
T0EFC 000:826 JLINK_IsHalted()  returns FALSE (0000ms, 0275ms total)
T0EFC 000:828 JLINK_IsHalted() -- CPU_ReadMem(2 bytes @ 0x20000000)  returns TRUE (0003ms, 0278ms total)
T0EFC 000:831 JLINK_ReadReg(R15)  returns 0x20000000 (0000ms, 0275ms total)
T0EFC 000:831 JLINK_ClrBPEx(BPHandle = 0x0000000D)  returns 0x00 (0000ms, 0275ms total)
T0EFC 000:831 JLINK_ReadReg(R0)  returns 0x00000000 (0000ms, 0275ms total)
T0EFC 000:832 JLINK_WriteMem(0x20000164, 0x0400 Bytes, ...) -- Data:  2D 98 06 F0 88 FA E8 49 A1 F8 0B 00 40 F2 87 20 ... -- CPU_WriteMem(1024 bytes @ 0x20000164)  returns 0x400 (0007ms, 0282ms total)
T0EFC 000:839 JLINK_WriteReg(R0, 0x08002400)  returns 0x00 (0000ms, 0282ms total)
T0EFC 000:839 JLINK_WriteReg(R1, 0x00000400)  returns 0x00 (0000ms, 0282ms total)
T0EFC 000:839 JLINK_WriteReg(R2, 0x20000164)  returns 0x00 (0000ms, 0282ms total)
T0EFC 000:839 JLINK_WriteReg(R3, 0x00000000)  returns 0x00 (0000ms, 0282ms total)
T0EFC 000:839 JLINK_WriteReg(R4, 0x00000000)  returns 0x00 (0000ms, 0282ms total)
T0EFC 000:839 JLINK_WriteReg(R5, 0x00000000)  returns 0x00 (0000ms, 0282ms total)
T0EFC 000:839 JLINK_WriteReg(R6, 0x00000000)  returns 0x00 (0000ms, 0282ms total)
T0EFC 000:839 JLINK_WriteReg(R7, 0x00000000)  returns 0x00 (0000ms, 0282ms total)
T0EFC 000:839 JLINK_WriteReg(R8, 0x00000000)  returns 0x00 (0000ms, 0282ms total)
T0EFC 000:839 JLINK_WriteReg(R9, 0x20000160)  returns 0x00 (0000ms, 0282ms total)
T0EFC 000:839 JLINK_WriteReg(R10, 0x00000000)  returns 0x00 (0000ms, 0282ms total)
T0EFC 000:839 JLINK_WriteReg(R11, 0x00000000)  returns 0x00 (0000ms, 0282ms total)
T0EFC 000:839 JLINK_WriteReg(R12, 0x00000000)  returns 0x00 (0000ms, 0282ms total)
T0EFC 000:839 JLINK_WriteReg(R13, 0x20000800)  returns 0x00 (0000ms, 0282ms total)
T0EFC 000:839 JLINK_WriteReg(R14, 0x20000001)  returns 0x00 (0000ms, 0282ms total)
T0EFC 000:839 JLINK_WriteReg(R15, 0x200000F4)  returns 0x00 (0000ms, 0282ms total)
T0EFC 000:839 JLINK_WriteReg(XPSR, 0x01000000)  returns 0x00 (0000ms, 0282ms total)
T0EFC 000:839 JLINK_WriteReg(MSP, 0x20000800)  returns 0x00 (0000ms, 0282ms total)
T0EFC 000:839 JLINK_WriteReg(PSP, 0x20000800)  returns 0x00 (0000ms, 0282ms total)
T0EFC 000:839 JLINK_WriteReg(CFBP, 0x00000000)  returns 0x00 (0000ms, 0282ms total)
T0EFC 000:839 JLINK_SetBPEx(Addr = 0x20000000, Type = 0xFFFFFFF2)  returns 0x0000000E (0000ms, 0282ms total)
T0EFC 000:839 JLINK_Go() (0002ms, 0284ms total)
T0EFC 000:841 JLINK_IsHalted()  returns FALSE (0000ms, 0284ms total)
T0EFC 000:844 JLINK_IsHalted()  returns FALSE (0000ms, 0284ms total)
T0EFC 000:846 JLINK_IsHalted()  returns FALSE (0000ms, 0284ms total)
T0EFC 000:848 JLINK_IsHalted()  returns FALSE (0000ms, 0284ms total)
T0EFC 000:850 JLINK_IsHalted()  returns FALSE (0000ms, 0284ms total)
T0EFC 000:852 JLINK_IsHalted()  returns FALSE (0000ms, 0284ms total)
T0EFC 000:855 JLINK_IsHalted()  returns FALSE (0000ms, 0284ms total)
T0EFC 000:857 JLINK_IsHalted()  returns FALSE (0000ms, 0284ms total)
T0EFC 000:859 JLINK_IsHalted()  returns FALSE (0000ms, 0284ms total)
T0EFC 000:861 JLINK_IsHalted()  returns FALSE (0000ms, 0284ms total)
T0EFC 000:864 JLINK_IsHalted()  returns FALSE (0000ms, 0284ms total)
T0EFC 000:866 JLINK_IsHalted()  returns FALSE (0000ms, 0284ms total)
T0EFC 000:867 JLINK_IsHalted()  returns FALSE (0000ms, 0284ms total)
T0EFC 000:869 JLINK_IsHalted()  returns FALSE (0000ms, 0284ms total)
T0EFC 000:871 JLINK_IsHalted() -- CPU_ReadMem(2 bytes @ 0x20000000)  returns TRUE (0003ms, 0287ms total)
T0EFC 000:874 JLINK_ReadReg(R15)  returns 0x20000000 (0000ms, 0284ms total)
T0EFC 000:874 JLINK_ClrBPEx(BPHandle = 0x0000000E)  returns 0x00 (0000ms, 0284ms total)
T0EFC 000:874 JLINK_ReadReg(R0)  returns 0x00000000 (0000ms, 0284ms total)
T0EFC 000:875 JLINK_WriteMem(0x20000164, 0x0400 Bytes, ...) -- Data:  0A 03 40 1C 8D 49 81 F8 0A 03 08 46 41 88 04 EB ... -- CPU_WriteMem(1024 bytes @ 0x20000164)  returns 0x400 (0007ms, 0291ms total)
T0EFC 000:882 JLINK_WriteReg(R0, 0x08002800)  returns 0x00 (0000ms, 0291ms total)
T0EFC 000:882 JLINK_WriteReg(R1, 0x00000400)  returns 0x00 (0000ms, 0291ms total)
T0EFC 000:882 JLINK_WriteReg(R2, 0x20000164)  returns 0x00 (0000ms, 0291ms total)
